T1114 1521:272 SEGGER J-Link V6.46 Log File (0000ms, 18769ms total)
T1114 1521:272 DLL Compiled: May 23 2019 17:49:56 (0000ms, 18769ms total)
T1114 1521:272 Logging started @ 2025-02-20 09:48 (0000ms, 18769ms total)
T1114 1521:272 JLINK_SetWarnOutHandler(...) (0000ms, 18769ms total)
T1114 1521:272 JLINK_OpenEx(...)
Firmware: J-Link ARM-OB STM32 compiled Aug 22 2012 19:52:04
Hardware: V7.00
S/N: 20090931
Feature(s): RDI,FlashDL,FlashBP,JFlash,GDBFull
TELNET listener socket opened on port 19021WEBSRV 
Starting webserver (0028ms, 18797ms total)
T1114 1521:272 WEBSRV Webserver running on local port 19080 (0028ms, 18797ms total)
T1114 1521:272   returns O.K. (0028ms, 18797ms total)
T1114 1521:300 JLINK_GetEmuCaps()  returns 0x88EA5833 (0000ms, 18797ms total)
T1114 1521:301 JLINK_TIF_GetAvailable(...) (0000ms, 18797ms total)
T1114 1521:301 JLINK_SetErrorOutHandler(...) (0000ms, 18797ms total)
T1114 1521:301 JLINK_ExecCommand("ProjectFile = "F:\A_code\BP_code\BP_FREERTOS\MDK-ARM\JLinkSettings.ini"", ...).   returns 0x00 (0001ms, 18798ms total)
T1114 1521:306 JLINK_ExecCommand("Device = STM32L433RCTx", ...). Device "STM32L433RC" selected.  returns 0x00 (0004ms, 18802ms total)
T1114 1521:311 JLINK_ExecCommand("DisableConnectionTimeout", ...).   returns 0x01 (0000ms, 18802ms total)
T1114 1521:311 JLINK_GetHardwareVersion()  returns 0x11170 (0000ms, 18802ms total)
T1114 1521:311 JLINK_GetDLLVersion()  returns 64600 (0000ms, 18802ms total)
T1114 1521:311 JLINK_GetFirmwareString(...) (0000ms, 18802ms total)
T1114 1521:321 JLINK_GetDLLVersion()  returns 64600 (0000ms, 18802ms total)
T1114 1521:321 JLINK_GetCompileDateTime() (0000ms, 18802ms total)
T1114 1521:324 JLINK_GetFirmwareString(...) (0000ms, 18802ms total)
T1114 1521:328 JLINK_GetHardwareVersion()  returns 0x11170 (0000ms, 18802ms total)
T1114 1521:338 JLINK_TIF_Select(JLINKARM_TIF_SWD)  returns 0x00 (0001ms, 18803ms total)
T1114 1521:339 JLINK_SetSpeed(5000) (0000ms, 18803ms total)
T1114 1521:339 JLINK_GetId() >0x10B TIF>Found SW-DP with ID 0x2BA01477 >0x0D TIF> >0x28 TIF> >0x0D TIF> >0x28 TIF> >0x0D TIF> >0x28 TIF> >0x0D TIF> >0x28 TIF> >0x0D TIF> >0x21 TIF> >0x0D TIF> >0x28 TIF> >0x0D TIF> >0x28 TIF> >0x0D TIF> >0x28 TIF> >0x0D TIF> >0x21 TIF> >0x0D TIF> >0x21 TIF> >0x0D TIF> >0x28 TIF> >0x0D TIF> >0x21 TIF> >0x0D TIF> >0x21 TIF> >0x0D TIF> >0x28 TIF> >0x0D TIF> >0x21 TIF> >0x0D TIF> >0x21 TIF> >0x0D TIF> >0x28 TIF> >0x0D TIF> >0x21 TIF> >0x0D TIF> >0x21 TIF> >0x0D TIF>
 >0x28 TIF> >0x0D TIF> >0x21 TIF> >0x0D TIF> >0x21 TIF> >0x0D TIF> >0x28 TIF> >0x0D TIF> >0x21 TIF> >0x0D TIF> >0x21 TIF> >0x0D TIF> >0x28 TIF> >0x0D TIF> >0x21 TIF> >0x0D TIF> >0x21 TIF> >0x0D TIF> >0x28 TIF> >0x0D TIF> >0x21 TIF> >0x0D TIF> >0x21 TIF> >0x0D TIF> >0x28 TIF> >0x0D TIF> >0x21 TIF> >0x0D TIF> >0x21 TIF> >0x0D TIF> >0x28 TIF> >0x0D TIF> >0x21 TIF> >0x0D TIF> >0x21 TIF> >0x0D TIF> >0x28 TIF> >0x0D TIF> >0x21 TIF> >0x0D TIF> >0x21 TIF> >0x10B TIF>Found SW-DP with ID 0x2BA01477 >0x0D TIF>
 >0x28 TIF> >0x0D TIF> >0x28 TIF> >0x0D TIF> >0x28 TIF> >0x0D TIF> >0x28 TIF> >0x0D TIF> >0x21 TIF> >0x0D TIF> >0x28 TIF>Scanning AP map to find all available APs >0x0D TIF> >0x28 TIF> >0x0D TIF> >0x21 TIF> >0x0D TIF> >0x21 TIF> >0x0D TIF> >0x28 TIF> >0x0D TIF> >0x21 TIF> >0x0D TIF> >0x21 TIF>AP[1]: Stopped AP scan as end of AP map has been reachedAP[0]: AHB-AP (IDR: 0x24770011)Iterating through AP map to find AHB-AP to use >0x42 TIF> >0x28 TIF> >0x0D TIF> >0x28 TIF> >0x0D TIF> >0x21 TIF> >0x0D TIF>
 >0x21 TIF> >0x42 TIF> >0x28 TIF> >0x0D TIF> >0x28 TIF> >0x0D TIF> >0x28 TIF> >0x0D TIF> >0x21 TIF> >0x0D TIF> >0x21 TIF>AP[0]: Core foundAP[0]: AHB-AP ROM base: 0xE00FF000 >0x0D TIF> >0x28 TIF> >0x0D TIF> >0x28 TIF> >0x0D TIF> >0x28 TIF> >0x0D TIF> >0x21 TIF> >0x0D TIF> >0x21 TIF>CPUID register: 0x410FC241. Implementer code: 0x41 (ARM)Found Cortex-M4 r0p1, Little endian. -- Max. mem block: 0x00002C18 -- CPU_ReadMem(4 bytes @ 0xE000EDF0) -- CPU_WriteMem(4 bytes @ 0xE000EDF0)
 -- CPU_ReadMem(4 bytes @ 0xE0002000)FPUnit: 6 code (BP) slots and 2 literal slots -- CPU_ReadMem(4 bytes @ 0xE000EDFC) -- CPU_WriteMem(4 bytes @ 0xE000EDFC) -- CPU_ReadMem(4 bytes @ 0xE0001000) -- CPU_WriteMem(4 bytes @ 0xE0001000) -- CPU_ReadMem(4 bytes @ 0xE000ED88) -- CPU_WriteMem(4 bytes @ 0xE000ED88) -- CPU_ReadMem(4 bytes @ 0xE000ED88) -- CPU_WriteMem(4 bytes @ 0xE000ED88)CoreSight components:ROMTbl[0] @ E00FF000 -- CPU_ReadMem(16 bytes @ 0xE00FF000) -- CPU_ReadMem(16 bytes @ 0xE000EFF0)
 -- CPU_ReadMem(16 bytes @ 0xE000EFE0)ROMTbl[0][0]: E000E000, CID: B105E00D, PID: 000BB00C SCS-M7 -- CPU_ReadMem(16 bytes @ 0xE0001FF0) -- CPU_ReadMem(16 bytes @ 0xE0001FE0)ROMTbl[0][1]: E0001000, CID: B105E00D, PID: 003BB002 DWT -- CPU_ReadMem(16 bytes @ 0xE0002FF0) -- CPU_ReadMem(16 bytes @ 0xE0002FE0)ROMTbl[0][2]: E0002000, CID: B105E00D, PID: 002BB003 FPB -- CPU_ReadMem(16 bytes @ 0xE0000FF0) -- CPU_ReadMem(16 bytes @ 0xE0000FE0)ROMTbl[0][3]: E0000000, CID: B105E00D, PID: 003BB001 ITM
 -- CPU_ReadMem(16 bytes @ 0xE00FF010) -- CPU_ReadMem(16 bytes @ 0xE0040FF0) -- CPU_ReadMem(16 bytes @ 0xE0040FE0)ROMTbl[0][4]: E0040000, CID: B105900D, PID: 000BB9A1 TPIU -- CPU_ReadMem(16 bytes @ 0xE0041FF0) -- CPU_ReadMem(16 bytes @ 0xE0041FE0)ROMTbl[0][5]: E0041000, CID: B105900D, PID: 000BB925 ETM >0x0D TIF> >0x21 TIF>  returns 0x2BA01477 (0291ms, 19094ms total)
T1114 1521:630 JLINK_GetDLLVersion()  returns 64600 (0000ms, 19094ms total)
T1114 1521:631 JLINK_CORE_GetFound()  returns 0xE0000FF (0000ms, 19094ms total)
T1114 1521:631 JLINK_GetDebugInfo(0x100 = JLINKARM_ROM_TABLE_ADDR_INDEX) -- Value=0xE00FF000  returns 0x00 (0000ms, 19094ms total)
T1114 1521:635 JLINK_GetDebugInfo(0x100 = JLINKARM_ROM_TABLE_ADDR_INDEX) -- Value=0xE00FF000  returns 0x00 (0000ms, 19094ms total)
T1114 1521:635 JLINK_GetDebugInfo(0x101 = JLINKARM_DEBUG_INFO_ETM_ADDR_INDEX) -- Value=0xE0041000  returns 0x00 (0000ms, 19094ms total)
T1114 1521:635 JLINK_ReadMemEx(0xE0041FD0, 0x0020 Bytes, ..., Flags = 0x02000004) -- CPU_ReadMem(32 bytes @ 0xE0041FD0) - Data: 04 00 00 00 00 00 00 00 00 00 00 00 00 00 00 00 ...  returns 0x20 (0001ms, 19095ms total)
T1114 1521:636 JLINK_GetDebugInfo(0x102 = JLINKARM_DEBUG_INFO_MTB_ADDR_INDEX) -- Value=0x00000000  returns 0x00 (0000ms, 19095ms total)
T1114 1521:636 JLINK_GetDebugInfo(0x103 = JLINKARM_DEBUG_INFO_TPIU_ADDR_INDEX) -- Value=0xE0040000  returns 0x00 (0000ms, 19095ms total)
T1114 1521:636 JLINK_GetDebugInfo(0x104 = JLINKARM_DEBUG_INFO_ITM_ADDR_INDEX) -- Value=0xE0000000  returns 0x00 (0001ms, 19096ms total)
T1114 1521:637 JLINK_GetDebugInfo(0x105 = JLINKARM_DEBUG_INFO_DWT_ADDR_INDEX) -- Value=0xE0001000  returns 0x00 (0000ms, 19096ms total)
T1114 1521:637 JLINK_GetDebugInfo(0x106 = JLINKARM_DEBUG_INFO_FPB_ADDR_INDEX) -- Value=0xE0002000  returns 0x00 (0000ms, 19096ms total)
T1114 1521:637 JLINK_GetDebugInfo(0x107 = JLINKARM_DEBUG_INFO_NVIC_ADDR_INDEX) -- Value=0xE000E000  returns 0x00 (0000ms, 19096ms total)
T1114 1521:637 JLINK_GetDebugInfo(0x10C = JLINKARM_DEBUG_INFO_DBG_ADDR_INDEX) -- Value=0xE000EDF0  returns 0x00 (0000ms, 19096ms total)
T1114 1521:637 JLINK_GetDebugInfo(0x01 = Unknown) -- Value=0x00000001  returns 0x00 (0000ms, 19096ms total)
T1114 1521:637 JLINK_ReadMemU32(0xE000ED00, 0x0001 Items, ...) -- CPU_ReadMem(4 bytes @ 0xE000ED00) - Data: 41 C2 0F 41  returns 1 (0000ms, 19096ms total)
T1114 1521:637 JLINK_GetDebugInfo(0x10F = JLINKARM_DEBUG_INFO_HAS_CORTEX_M_SECURITY_EXT_INDEX) -- Value=0x00000000  returns 0x00 (0000ms, 19096ms total)
T1114 1521:637 JLINK_SetResetType(JLINKARM_CM3_RESET_TYPE_NORMAL)  returns JLINKARM_CM3_RESET_TYPE_NORMAL (0000ms, 19096ms total)
T1114 1521:637 JLINK_Reset() -- CPU is running -- CPU_WriteMem(4 bytes @ 0xE000EDF0) -- CPU is running -- CPU_WriteMem(4 bytes @ 0xE000EDFC)Reset: Halt core after reset via DEMCR.VC_CORERESET. >0x35 TIF>Reset: Reset device via AIRCR.SYSRESETREQ. -- CPU is running -- CPU_WriteMem(4 bytes @ 0xE000ED0C) >0x0D TIF> >0x28 TIF> -- CPU_ReadMem(4 bytes @ 0xE000EDF0) -- CPU_ReadMem(4 bytes @ 0xE000EDF0) -- CPU is running -- CPU_WriteMem(4 bytes @ 0xE000EDF0) -- CPU is running -- CPU_WriteMem(4 bytes @ 0xE000EDFC)
 -- CPU_ReadMem(4 bytes @ 0xE000EDF0) -- CPU_WriteMem(4 bytes @ 0xE0002000) -- CPU_ReadMem(4 bytes @ 0xE000EDFC) -- CPU_ReadMem(4 bytes @ 0xE0001000) (0077ms, 19173ms total)
T1114 1521:714 JLINK_Halt()  returns 0x00 (0000ms, 19173ms total)
T1114 1521:714 JLINK_ReadMemU32(0xE000EDF0, 0x0001 Items, ...) -- CPU_ReadMem(4 bytes @ 0xE000EDF0) - Data: 03 00 03 00  returns 1 (0001ms, 19174ms total)
T1114 1521:715 JLINK_WriteU32(0xE000EDF0, 0xA05F0003) -- CPU_WriteMem(4 bytes @ 0xE000EDF0)  returns 0 (0001ms, 19175ms total)
T1114 1521:716 JLINK_WriteU32(0xE000EDFC, 0x01000000) -- CPU_WriteMem(4 bytes @ 0xE000EDFC)  returns 0 (0001ms, 19176ms total)
T1114 1521:729 JLINK_GetHWStatus(...)  returns 0x00 (0001ms, 19177ms total)
T1114 1521:741 JLINK_GetNumBPUnits(Type = 0xFFFFFF00)  returns 0x06 (0000ms, 19177ms total)
T1114 1521:741 JLINK_GetNumBPUnits(Type = 0xF0)  returns 0x2000 (0000ms, 19177ms total)
T1114 1521:741 JLINK_GetNumWPUnits()  returns 0x04 (0000ms, 19177ms total)
T1114 1521:750 JLINK_GetSpeed()  returns 0xFA0 (0001ms, 19178ms total)
T1114 1521:758 JLINK_ReadMemU32(0xE000E004, 0x0001 Items, ...) -- CPU_ReadMem(4 bytes @ 0xE000E004) - Data: 02 00 00 00  returns 1 (0001ms, 19179ms total)
T1114 1521:759 JLINK_ReadMemU32(0xE000E004, 0x0001 Items, ...) -- CPU_ReadMem(4 bytes @ 0xE000E004) - Data: 02 00 00 00  returns 1 (0000ms, 19179ms total)
T1114 1521:759 JLINK_WriteMemEx(0xE0001000, 0x001C Bytes, ..., Flags = 0x02000004) - Data: 01 00 00 00 00 00 00 00 00 00 00 00 00 00 00 00 ... -- CPU_WriteMem(28 bytes @ 0xE0001000)  returns 0x1C (0002ms, 19181ms total)
T1114 1521:761 JLINK_Halt()  returns 0x00 (0000ms, 19181ms total)
T1114 1521:761 JLINK_IsHalted()  returns TRUE (0000ms, 19181ms total)
T1114 1521:765 JLINK_WriteMem(0x20000000, 0x01BC Bytes, ...) - Data: 00 BE 0A E0 0D 78 2D 06 68 40 08 24 40 00 00 D3 ... -- CPU_WriteMem(444 bytes @ 0x20000000)  returns 0x1BC (0007ms, 19188ms total)
T1114 1521:772 JLINK_WriteReg(R0, 0x08000000)  returns 0x00 (0000ms, 19188ms total)
T1114 1521:772 JLINK_WriteReg(R1, 0x007A1200)  returns 0x00 (0000ms, 19188ms total)
T1114 1521:772 JLINK_WriteReg(R2, 0x00000001)  returns 0x00 (0000ms, 19188ms total)
T1114 1521:772 JLINK_WriteReg(R3, 0x00000000)  returns 0x00 (0000ms, 19188ms total)
T1114 1521:772 JLINK_WriteReg(R4, 0x00000000)  returns 0x00 (0000ms, 19188ms total)
T1114 1521:772 JLINK_WriteReg(R5, 0x00000000)  returns 0x00 (0000ms, 19188ms total)
T1114 1521:772 JLINK_WriteReg(R6, 0x00000000)  returns 0x00 (0000ms, 19188ms total)
T1114 1521:772 JLINK_WriteReg(R7, 0x00000000)  returns 0x00 (0000ms, 19188ms total)
T1114 1521:772 JLINK_WriteReg(R8, 0x00000000)  returns 0x00 (0000ms, 19188ms total)
T1114 1521:772 JLINK_WriteReg(R9, 0x200001B8)  returns 0x00 (0000ms, 19188ms total)
T1114 1521:772 JLINK_WriteReg(R10, 0x00000000)  returns 0x00 (0000ms, 19188ms total)
T1114 1521:772 JLINK_WriteReg(R11, 0x00000000)  returns 0x00 (0000ms, 19188ms total)
T1114 1521:772 JLINK_WriteReg(R12, 0x00000000)  returns 0x00 (0000ms, 19188ms total)
T1114 1521:772 JLINK_WriteReg(R13 (SP), 0x20001000)  returns 0x00 (0000ms, 19188ms total)
T1114 1521:772 JLINK_WriteReg(R14, 0x20000001)  returns 0x00 (0000ms, 19188ms total)
T1114 1521:772 JLINK_WriteReg(R15 (PC), 0x20000086)  returns 0x00 (0000ms, 19188ms total)
T1114 1521:772 JLINK_WriteReg(XPSR, 0x01000000)  returns 0x00 (0000ms, 19188ms total)
T1114 1521:772 JLINK_WriteReg(MSP, 0x20001000)  returns 0x00 (0000ms, 19188ms total)
T1114 1521:772 JLINK_WriteReg(PSP, 0x20001000)  returns 0x00 (0000ms, 19188ms total)
T1114 1521:772 JLINK_WriteReg(CFBP, 0x00000000)  returns 0x00 (0000ms, 19188ms total)
T1114 1521:772 JLINK_SetBPEx(Addr = 0x20000000, Type = 0xFFFFFFF2) -- CPU_ReadMem(2 bytes @ 0x20000000)  returns 0x00000001 (0001ms, 19189ms total)
T1114 1521:773 JLINK_Go() -- CPU_WriteMem(2 bytes @ 0x20000000) -- CPU_ReadMem(4 bytes @ 0xE0001000) -- CPU_WriteMem(4 bytes @ 0xE0002008) -- CPU_WriteMem(4 bytes @ 0xE000200C) -- CPU_WriteMem(4 bytes @ 0xE0002010) -- CPU_WriteMem(4 bytes @ 0xE0002014) -- CPU_WriteMem(4 bytes @ 0xE0002018) -- CPU_WriteMem(4 bytes @ 0xE000201C) -- CPU_WriteMem(4 bytes @ 0xE0001004) (0008ms, 19197ms total)
T1114 1521:781 JLINK_IsHalted() -- CPU_ReadMem(2 bytes @ 0x20000000)  returns TRUE (0005ms, 19202ms total)
T1114 1521:786 JLINK_ReadReg(R15 (PC))  returns 0x20000000 (0000ms, 19197ms total)
T1114 1521:786 JLINK_ClrBPEx(BPHandle = 0x00000001)  returns 0x00 (0000ms, 19197ms total)
T1114 1521:786 JLINK_ReadReg(R0)  returns 0x00000000 (0000ms, 19197ms total)
T1114 1521:786 JLINK_WriteReg(R0, 0x08000000)  returns 0x00 (0000ms, 19197ms total)
T1114 1521:786 JLINK_WriteReg(R1, 0x007A1200)  returns 0x00 (0000ms, 19197ms total)
T1114 1521:786 JLINK_WriteReg(R2, 0x00000001)  returns 0x00 (0000ms, 19197ms total)
T1114 1521:786 JLINK_WriteReg(R3, 0x00000000)  returns 0x00 (0000ms, 19197ms total)
T1114 1521:786 JLINK_WriteReg(R4, 0x00000000)  returns 0x00 (0000ms, 19197ms total)
T1114 1521:786 JLINK_WriteReg(R5, 0x00000000)  returns 0x00 (0000ms, 19197ms total)
T1114 1521:786 JLINK_WriteReg(R6, 0x00000000)  returns 0x00 (0000ms, 19197ms total)
T1114 1521:786 JLINK_WriteReg(R7, 0x00000000)  returns 0x00 (0000ms, 19197ms total)
T1114 1521:786 JLINK_WriteReg(R8, 0x00000000)  returns 0x00 (0001ms, 19198ms total)
T1114 1521:787 JLINK_WriteReg(R9, 0x200001B8)  returns 0x00 (0000ms, 19198ms total)
T1114 1521:787 JLINK_WriteReg(R10, 0x00000000)  returns 0x00 (0000ms, 19198ms total)
T1114 1521:787 JLINK_WriteReg(R11, 0x00000000)  returns 0x00 (0000ms, 19198ms total)
T1114 1521:787 JLINK_WriteReg(R12, 0x00000000)  returns 0x00 (0000ms, 19198ms total)
T1114 1521:787 JLINK_WriteReg(R13 (SP), 0x20001000)  returns 0x00 (0000ms, 19198ms total)
T1114 1521:787 JLINK_WriteReg(R14, 0x20000001)  returns 0x00 (0000ms, 19198ms total)
T1114 1521:787 JLINK_WriteReg(R15 (PC), 0x200000C0)  returns 0x00 (0000ms, 19198ms total)
T1114 1521:787 JLINK_WriteReg(XPSR, 0x01000000)  returns 0x00 (0000ms, 19198ms total)
T1114 1521:787 JLINK_WriteReg(MSP, 0x20001000)  returns 0x00 (0000ms, 19198ms total)
T1114 1521:787 JLINK_WriteReg(PSP, 0x20001000)  returns 0x00 (0000ms, 19198ms total)
T1114 1521:787 JLINK_WriteReg(CFBP, 0x00000000)  returns 0x00 (0000ms, 19198ms total)
T1114 1521:787 JLINK_SetBPEx(Addr = 0x20000000, Type = 0xFFFFFFF2)  returns 0x00000002 (0000ms, 19198ms total)
T1114 1521:787 JLINK_Go() -- CPU_ReadMem(4 bytes @ 0xE0001000) (0004ms, 19202ms total)
T1114 1521:791 JLINK_IsHalted()  returns FALSE (0001ms, 19203ms total)
T1114 1521:848 JLINK_IsHalted() -- CPU_ReadMem(2 bytes @ 0x20000000)  returns TRUE (0004ms, 19206ms total)
T1114 1521:852 JLINK_ReadReg(R15 (PC))  returns 0x20000000 (0000ms, 19202ms total)
T1114 1521:852 JLINK_ClrBPEx(BPHandle = 0x00000002)  returns 0x00 (0000ms, 19202ms total)
T1114 1521:852 JLINK_ReadReg(R0)  returns 0x00000000 (0000ms, 19202ms total)
T1114 1521:905 JLINK_WriteReg(R0, 0x00000001)  returns 0x00 (0000ms, 19202ms total)
T1114 1521:905 JLINK_WriteReg(R1, 0x007A1200)  returns 0x00 (0000ms, 19202ms total)
T1114 1521:905 JLINK_WriteReg(R2, 0x00000001)  returns 0x00 (0000ms, 19202ms total)
T1114 1521:905 JLINK_WriteReg(R3, 0x00000000)  returns 0x00 (0000ms, 19202ms total)
T1114 1521:905 JLINK_WriteReg(R4, 0x00000000)  returns 0x00 (0000ms, 19202ms total)
T1114 1521:905 JLINK_WriteReg(R5, 0x00000000)  returns 0x00 (0000ms, 19202ms total)
T1114 1521:905 JLINK_WriteReg(R6, 0x00000000)  returns 0x00 (0000ms, 19202ms total)
T1114 1521:905 JLINK_WriteReg(R7, 0x00000000)  returns 0x00 (0000ms, 19202ms total)
T1114 1521:905 JLINK_WriteReg(R8, 0x00000000)  returns 0x00 (0000ms, 19202ms total)
T1114 1521:905 JLINK_WriteReg(R9, 0x200001B8)  returns 0x00 (0000ms, 19202ms total)
T1114 1521:905 JLINK_WriteReg(R10, 0x00000000)  returns 0x00 (0000ms, 19202ms total)
T1114 1521:905 JLINK_WriteReg(R11, 0x00000000)  returns 0x00 (0000ms, 19202ms total)
T1114 1521:905 JLINK_WriteReg(R12, 0x00000000)  returns 0x00 (0000ms, 19202ms total)
T1114 1521:905 JLINK_WriteReg(R13 (SP), 0x20001000)  returns 0x00 (0000ms, 19202ms total)
T1114 1521:905 JLINK_WriteReg(R14, 0x20000001)  returns 0x00 (0000ms, 19202ms total)
T1114 1521:905 JLINK_WriteReg(R15 (PC), 0x200000B0)  returns 0x00 (0000ms, 19202ms total)
T1114 1521:905 JLINK_WriteReg(XPSR, 0x01000000)  returns 0x00 (0000ms, 19202ms total)
T1114 1521:905 JLINK_WriteReg(MSP, 0x20001000)  returns 0x00 (0001ms, 19203ms total)
T1114 1521:906 JLINK_WriteReg(PSP, 0x20001000)  returns 0x00 (0000ms, 19203ms total)
T1114 1521:906 JLINK_WriteReg(CFBP, 0x00000000)  returns 0x00 (0000ms, 19203ms total)
T1114 1521:906 JLINK_SetBPEx(Addr = 0x20000000, Type = 0xFFFFFFF2)  returns 0x00000003 (0000ms, 19203ms total)
T1114 1521:906 JLINK_Go() -- CPU_ReadMem(4 bytes @ 0xE0001000) (0004ms, 19207ms total)
T1114 1521:910 JLINK_IsHalted() -- CPU_ReadMem(2 bytes @ 0x20000000)  returns TRUE (0005ms, 19212ms total)
T1114 1521:915 JLINK_ReadReg(R15 (PC))  returns 0x20000000 (0000ms, 19207ms total)
T1114 1521:915 JLINK_ClrBPEx(BPHandle = 0x00000003)  returns 0x00 (0000ms, 19207ms total)
T1114 1521:915 JLINK_ReadReg(R0)  returns 0x00000000 (0000ms, 19207ms total)
T1114 1521:922 JLINK_WriteMem(0x20000000, 0x01BC Bytes, ...) - Data: 00 BE 0A E0 0D 78 2D 06 68 40 08 24 40 00 00 D3 ... -- CPU_WriteMem(444 bytes @ 0x20000000)  returns 0x1BC (0006ms, 19213ms total)
T1114 1521:928 JLINK_WriteReg(R0, 0x08000000)  returns 0x00 (0000ms, 19213ms total)
T1114 1521:928 JLINK_WriteReg(R1, 0x007A1200)  returns 0x00 (0000ms, 19213ms total)
T1114 1521:928 JLINK_WriteReg(R2, 0x00000002)  returns 0x00 (0000ms, 19213ms total)
T1114 1521:928 JLINK_WriteReg(R3, 0x00000000)  returns 0x00 (0001ms, 19214ms total)
T1114 1521:929 JLINK_WriteReg(R4, 0x00000000)  returns 0x00 (0000ms, 19214ms total)
T1114 1521:929 JLINK_WriteReg(R5, 0x00000000)  returns 0x00 (0000ms, 19214ms total)
T1114 1521:929 JLINK_WriteReg(R6, 0x00000000)  returns 0x00 (0000ms, 19214ms total)
T1114 1521:929 JLINK_WriteReg(R7, 0x00000000)  returns 0x00 (0000ms, 19214ms total)
T1114 1521:929 JLINK_WriteReg(R8, 0x00000000)  returns 0x00 (0000ms, 19214ms total)
T1114 1521:929 JLINK_WriteReg(R9, 0x200001B8)  returns 0x00 (0000ms, 19214ms total)
T1114 1521:929 JLINK_WriteReg(R10, 0x00000000)  returns 0x00 (0000ms, 19214ms total)
T1114 1521:929 JLINK_WriteReg(R11, 0x00000000)  returns 0x00 (0000ms, 19214ms total)
T1114 1521:929 JLINK_WriteReg(R12, 0x00000000)  returns 0x00 (0000ms, 19214ms total)
T1114 1521:929 JLINK_WriteReg(R13 (SP), 0x20001000)  returns 0x00 (0000ms, 19214ms total)
T1114 1521:929 JLINK_WriteReg(R14, 0x20000001)  returns 0x00 (0000ms, 19214ms total)
T1114 1521:929 JLINK_WriteReg(R15 (PC), 0x20000086)  returns 0x00 (0000ms, 19214ms total)
T1114 1521:929 JLINK_WriteReg(XPSR, 0x01000000)  returns 0x00 (0000ms, 19214ms total)
T1114 1521:929 JLINK_WriteReg(MSP, 0x20001000)  returns 0x00 (0000ms, 19214ms total)
T1114 1521:929 JLINK_WriteReg(PSP, 0x20001000)  returns 0x00 (0000ms, 19214ms total)
T1114 1521:929 JLINK_WriteReg(CFBP, 0x00000000)  returns 0x00 (0000ms, 19214ms total)
T1114 1521:929 JLINK_SetBPEx(Addr = 0x20000000, Type = 0xFFFFFFF2) -- CPU_ReadMem(2 bytes @ 0x20000000)  returns 0x00000004 (0001ms, 19215ms total)
T1114 1521:930 JLINK_Go() -- CPU_WriteMem(2 bytes @ 0x20000000) -- CPU_ReadMem(4 bytes @ 0xE0001000) (0004ms, 19219ms total)
T1114 1521:934 JLINK_IsHalted() -- CPU_ReadMem(2 bytes @ 0x20000000)  returns TRUE (0005ms, 19224ms total)
T1114 1521:939 JLINK_ReadReg(R15 (PC))  returns 0x20000000 (0000ms, 19219ms total)
T1114 1521:939 JLINK_ClrBPEx(BPHandle = 0x00000004)  returns 0x00 (0000ms, 19219ms total)
T1114 1521:939 JLINK_ReadReg(R0)  returns 0x00000000 (0000ms, 19219ms total)
T1114 1521:939 JLINK_WriteMem(0x200001BC, 0x0244 Bytes, ...) - Data: 48 4E 00 20 81 02 00 08 67 1B 00 08 99 1A 00 08 ... -- CPU_WriteMem(580 bytes @ 0x200001BC)  returns 0x244 (0007ms, 19226ms total)
T1114 1521:946 JLINK_WriteMem(0x20000400, 0x01BC Bytes, ...) - Data: 08 BF 00 F0 14 B8 80 F3 09 88 BF F3 6F 8F 70 47 ... -- CPU_WriteMem(444 bytes @ 0x20000400)  returns 0x1BC (0006ms, 19232ms total)
T1114 1521:952 JLINK_WriteReg(R0, 0x08000000)  returns 0x00 (0000ms, 19232ms total)
T1114 1521:952 JLINK_WriteReg(R1, 0x00000400)  returns 0x00 (0000ms, 19232ms total)
T1114 1521:952 JLINK_WriteReg(R2, 0x200001BC)  returns 0x00 (0000ms, 19232ms total)
T1114 1521:952 JLINK_WriteReg(R3, 0x00000000)  returns 0x00 (0001ms, 19233ms total)
T1114 1521:953 JLINK_WriteReg(R4, 0x00000000)  returns 0x00 (0000ms, 19233ms total)
T1114 1521:953 JLINK_WriteReg(R5, 0x00000000)  returns 0x00 (0000ms, 19233ms total)
T1114 1521:953 JLINK_WriteReg(R6, 0x00000000)  returns 0x00 (0000ms, 19233ms total)
T1114 1521:953 JLINK_WriteReg(R7, 0x00000000)  returns 0x00 (0000ms, 19233ms total)
T1114 1521:953 JLINK_WriteReg(R8, 0x00000000)  returns 0x00 (0000ms, 19233ms total)
T1114 1521:953 JLINK_WriteReg(R9, 0x200001B8)  returns 0x00 (0000ms, 19233ms total)
T1114 1521:953 JLINK_WriteReg(R10, 0x00000000)  returns 0x00 (0000ms, 19233ms total)
T1114 1521:953 JLINK_WriteReg(R11, 0x00000000)  returns 0x00 (0000ms, 19233ms total)
T1114 1521:953 JLINK_WriteReg(R12, 0x00000000)  returns 0x00 (0000ms, 19233ms total)
T1114 1521:953 JLINK_WriteReg(R13 (SP), 0x20001000)  returns 0x00 (0000ms, 19233ms total)
T1114 1521:953 JLINK_WriteReg(R14, 0x20000001)  returns 0x00 (0000ms, 19233ms total)
T1114 1521:953 JLINK_WriteReg(R15 (PC), 0x20000136)  returns 0x00 (0000ms, 19233ms total)
T1114 1521:953 JLINK_WriteReg(XPSR, 0x01000000)  returns 0x00 (0000ms, 19233ms total)
T1114 1521:953 JLINK_WriteReg(MSP, 0x20001000)  returns 0x00 (0000ms, 19233ms total)
T1114 1521:953 JLINK_WriteReg(PSP, 0x20001000)  returns 0x00 (0000ms, 19233ms total)
T1114 1521:953 JLINK_WriteReg(CFBP, 0x00000000)  returns 0x00 (0000ms, 19233ms total)
T1114 1521:953 JLINK_SetBPEx(Addr = 0x20000000, Type = 0xFFFFFFF2)  returns 0x00000005 (0000ms, 19233ms total)
T1114 1521:953 JLINK_Go() -- CPU_ReadMem(4 bytes @ 0xE0001000) (0004ms, 19237ms total)
T1114 1521:957 JLINK_IsHalted()  returns FALSE (0001ms, 19238ms total)
T1114 1521:966 JLINK_IsHalted()  returns FALSE (0000ms, 19237ms total)
T1114 1521:968 JLINK_IsHalted()  returns FALSE (0000ms, 19237ms total)
T1114 1521:970 JLINK_IsHalted() -- CPU_ReadMem(2 bytes @ 0x20000000)  returns TRUE (0004ms, 19241ms total)
T1114 1521:974 JLINK_ReadReg(R15 (PC))  returns 0x20000000 (0000ms, 19237ms total)
T1114 1521:974 JLINK_ClrBPEx(BPHandle = 0x00000005)  returns 0x00 (0000ms, 19237ms total)
T1114 1521:974 JLINK_ReadReg(R0)  returns 0x00000000 (0000ms, 19237ms total)
T1114 1521:975 JLINK_WriteMem(0x200001BC, 0x0244 Bytes, ...) - Data: 01 90 40 28 6B DA C3 F3 13 00 40 F4 80 1B 00 98 ... -- CPU_WriteMem(580 bytes @ 0x200001BC)  returns 0x244 (0007ms, 19244ms total)
T1114 1521:982 JLINK_WriteMem(0x20000400, 0x01BC Bytes, ...) - Data: 80 13 A7 EB 06 08 10 1B D6 46 08 F2 FD 38 73 EB ... -- CPU_WriteMem(444 bytes @ 0x20000400)  returns 0x1BC (0006ms, 19250ms total)
T1114 1521:988 JLINK_WriteReg(R0, 0x08000400)  returns 0x00 (0000ms, 19250ms total)
T1114 1521:988 JLINK_WriteReg(R1, 0x00000400)  returns 0x00 (0000ms, 19250ms total)
T1114 1521:988 JLINK_WriteReg(R2, 0x200001BC)  returns 0x00 (0000ms, 19250ms total)
T1114 1521:988 JLINK_WriteReg(R3, 0x00000000)  returns 0x00 (0000ms, 19250ms total)
T1114 1521:988 JLINK_WriteReg(R4, 0x00000000)  returns 0x00 (0000ms, 19250ms total)
T1114 1521:988 JLINK_WriteReg(R5, 0x00000000)  returns 0x00 (0000ms, 19250ms total)
T1114 1521:988 JLINK_WriteReg(R6, 0x00000000)  returns 0x00 (0001ms, 19251ms total)
T1114 1521:989 JLINK_WriteReg(R7, 0x00000000)  returns 0x00 (0000ms, 19251ms total)
T1114 1521:989 JLINK_WriteReg(R8, 0x00000000)  returns 0x00 (0000ms, 19251ms total)
T1114 1521:989 JLINK_WriteReg(R9, 0x200001B8)  returns 0x00 (0000ms, 19251ms total)
T1114 1521:989 JLINK_WriteReg(R10, 0x00000000)  returns 0x00 (0000ms, 19251ms total)
T1114 1521:989 JLINK_WriteReg(R11, 0x00000000)  returns 0x00 (0000ms, 19251ms total)
T1114 1521:989 JLINK_WriteReg(R12, 0x00000000)  returns 0x00 (0000ms, 19251ms total)
T1114 1521:989 JLINK_WriteReg(R13 (SP), 0x20001000)  returns 0x00 (0000ms, 19251ms total)
T1114 1521:989 JLINK_WriteReg(R14, 0x20000001)  returns 0x00 (0000ms, 19251ms total)
T1114 1521:989 JLINK_WriteReg(R15 (PC), 0x20000136)  returns 0x00 (0000ms, 19251ms total)
T1114 1521:989 JLINK_WriteReg(XPSR, 0x01000000)  returns 0x00 (0000ms, 19251ms total)
T1114 1521:989 JLINK_WriteReg(MSP, 0x20001000)  returns 0x00 (0000ms, 19251ms total)
T1114 1521:989 JLINK_WriteReg(PSP, 0x20001000)  returns 0x00 (0000ms, 19251ms total)
T1114 1521:989 JLINK_WriteReg(CFBP, 0x00000000)  returns 0x00 (0000ms, 19251ms total)
T1114 1521:989 JLINK_SetBPEx(Addr = 0x20000000, Type = 0xFFFFFFF2)  returns 0x00000006 (0000ms, 19251ms total)
T1114 1521:989 JLINK_Go() -- CPU_ReadMem(4 bytes @ 0xE0001000) (0004ms, 19255ms total)
T1114 1521:993 JLINK_IsHalted()  returns FALSE (0001ms, 19256ms total)
T1114 1521:997 JLINK_IsHalted()  returns FALSE (0000ms, 19255ms total)
T1114 1521:999 JLINK_IsHalted()  returns FALSE (0000ms, 19255ms total)
T1114 1522:002 JLINK_IsHalted()  returns FALSE (0000ms, 19255ms total)
T1114 1522:004 JLINK_IsHalted()  returns FALSE (0000ms, 19255ms total)
T1114 1522:007 JLINK_IsHalted() -- CPU_ReadMem(2 bytes @ 0x20000000)  returns TRUE (0004ms, 19259ms total)
T1114 1522:011 JLINK_ReadReg(R15 (PC))  returns 0x20000000 (0000ms, 19255ms total)
T1114 1522:011 JLINK_ClrBPEx(BPHandle = 0x00000006)  returns 0x00 (0000ms, 19255ms total)
T1114 1522:011 JLINK_ReadReg(R0)  returns 0x00000000 (0000ms, 19255ms total)
T1114 1522:012 JLINK_WriteMem(0x200001BC, 0x0244 Bytes, ...) - Data: 04 E0 20 46 39 46 BD E8 F0 8D 00 20 05 43 46 EA ... -- CPU_WriteMem(580 bytes @ 0x200001BC)  returns 0x244 (0007ms, 19262ms total)
T1114 1522:019 JLINK_WriteMem(0x20000400, 0x01BC Bytes, ...) - Data: 81 60 70 47 04 00 00 20 10 B5 00 24 03 20 00 F0 ... -- CPU_WriteMem(444 bytes @ 0x20000400)  returns 0x1BC (0006ms, 19268ms total)
T1114 1522:025 JLINK_WriteReg(R0, 0x08000800)  returns 0x00 (0000ms, 19268ms total)
T1114 1522:025 JLINK_WriteReg(R1, 0x00000400)  returns 0x00 (0000ms, 19268ms total)
T1114 1522:025 JLINK_WriteReg(R2, 0x200001BC)  returns 0x00 (0000ms, 19268ms total)
T1114 1522:025 JLINK_WriteReg(R3, 0x00000000)  returns 0x00 (0000ms, 19268ms total)
T1114 1522:025 JLINK_WriteReg(R4, 0x00000000)  returns 0x00 (0000ms, 19268ms total)
T1114 1522:025 JLINK_WriteReg(R5, 0x00000000)  returns 0x00 (0000ms, 19268ms total)
T1114 1522:025 JLINK_WriteReg(R6, 0x00000000)  returns 0x00 (0000ms, 19268ms total)
T1114 1522:025 JLINK_WriteReg(R7, 0x00000000)  returns 0x00 (0000ms, 19268ms total)
T1114 1522:025 JLINK_WriteReg(R8, 0x00000000)  returns 0x00 (0000ms, 19268ms total)
T1114 1522:025 JLINK_WriteReg(R9, 0x200001B8)  returns 0x00 (0000ms, 19268ms total)
T1114 1522:025 JLINK_WriteReg(R10, 0x00000000)  returns 0x00 (0000ms, 19268ms total)
T1114 1522:025 JLINK_WriteReg(R11, 0x00000000)  returns 0x00 (0000ms, 19268ms total)
T1114 1522:025 JLINK_WriteReg(R12, 0x00000000)  returns 0x00 (0000ms, 19268ms total)
T1114 1522:025 JLINK_WriteReg(R13 (SP), 0x20001000)  returns 0x00 (0001ms, 19269ms total)
T1114 1522:026 JLINK_WriteReg(R14, 0x20000001)  returns 0x00 (0000ms, 19269ms total)
T1114 1522:026 JLINK_WriteReg(R15 (PC), 0x20000136)  returns 0x00 (0000ms, 19269ms total)
T1114 1522:026 JLINK_WriteReg(XPSR, 0x01000000)  returns 0x00 (0000ms, 19269ms total)
T1114 1522:026 JLINK_WriteReg(MSP, 0x20001000)  returns 0x00 (0000ms, 19269ms total)
T1114 1522:026 JLINK_WriteReg(PSP, 0x20001000)  returns 0x00 (0000ms, 19269ms total)
T1114 1522:026 JLINK_WriteReg(CFBP, 0x00000000)  returns 0x00 (0000ms, 19269ms total)
T1114 1522:026 JLINK_SetBPEx(Addr = 0x20000000, Type = 0xFFFFFFF2)  returns 0x00000007 (0000ms, 19269ms total)
T1114 1522:026 JLINK_Go() -- CPU_ReadMem(4 bytes @ 0xE0001000) (0005ms, 19274ms total)
T1114 1522:031 JLINK_IsHalted()  returns FALSE (0000ms, 19274ms total)
T1114 1522:033 JLINK_IsHalted()  returns FALSE (0000ms, 19274ms total)
T1114 1522:035 JLINK_IsHalted()  returns FALSE (0000ms, 19274ms total)
T1114 1522:037 JLINK_IsHalted()  returns FALSE (0000ms, 19274ms total)
T1114 1522:039 JLINK_IsHalted()  returns FALSE (0000ms, 19274ms total)
T1114 1522:041 JLINK_IsHalted()  returns FALSE (0000ms, 19274ms total)
T1114 1522:044 JLINK_IsHalted() -- CPU_ReadMem(2 bytes @ 0x20000000)  returns TRUE (0004ms, 19278ms total)
T1114 1522:048 JLINK_ReadReg(R15 (PC))  returns 0x20000000 (0000ms, 19274ms total)
T1114 1522:048 JLINK_ClrBPEx(BPHandle = 0x00000007)  returns 0x00 (0000ms, 19274ms total)
T1114 1522:048 JLINK_ReadReg(R0)  returns 0x00000000 (0000ms, 19274ms total)
T1114 1522:049 JLINK_WriteMem(0x200001BC, 0x0244 Bytes, ...) - Data: E3 D5 03 20 70 47 00 00 00 70 00 40 10 00 00 20 ... -- CPU_WriteMem(580 bytes @ 0x200001BC)  returns 0x244 (0007ms, 19281ms total)
T1114 1522:056 JLINK_WriteMem(0x20000400, 0x01BC Bytes, ...) - Data: 40 45 05 D1 01 21 20 1D 00 F0 8C FE 00 B1 06 46 ... -- CPU_WriteMem(444 bytes @ 0x20000400)  returns 0x1BC (0006ms, 19287ms total)
T1114 1522:062 JLINK_WriteReg(R0, 0x08000C00)  returns 0x00 (0000ms, 19287ms total)
T1114 1522:062 JLINK_WriteReg(R1, 0x00000400)  returns 0x00 (0000ms, 19287ms total)
T1114 1522:062 JLINK_WriteReg(R2, 0x200001BC)  returns 0x00 (0000ms, 19287ms total)
T1114 1522:062 JLINK_WriteReg(R3, 0x00000000)  returns 0x00 (0000ms, 19287ms total)
T1114 1522:062 JLINK_WriteReg(R4, 0x00000000)  returns 0x00 (0000ms, 19287ms total)
T1114 1522:062 JLINK_WriteReg(R5, 0x00000000)  returns 0x00 (0000ms, 19287ms total)
T1114 1522:062 JLINK_WriteReg(R6, 0x00000000)  returns 0x00 (0000ms, 19287ms total)
T1114 1522:062 JLINK_WriteReg(R7, 0x00000000)  returns 0x00 (0000ms, 19287ms total)
T1114 1522:062 JLINK_WriteReg(R8, 0x00000000)  returns 0x00 (0000ms, 19287ms total)
T1114 1522:062 JLINK_WriteReg(R9, 0x200001B8)  returns 0x00 (0000ms, 19287ms total)
T1114 1522:062 JLINK_WriteReg(R10, 0x00000000)  returns 0x00 (0000ms, 19287ms total)
T1114 1522:062 JLINK_WriteReg(R11, 0x00000000)  returns 0x00 (0000ms, 19287ms total)
T1114 1522:062 JLINK_WriteReg(R12, 0x00000000)  returns 0x00 (0000ms, 19287ms total)
T1114 1522:062 JLINK_WriteReg(R13 (SP), 0x20001000)  returns 0x00 (0000ms, 19287ms total)
T1114 1522:062 JLINK_WriteReg(R14, 0x20000001)  returns 0x00 (0000ms, 19287ms total)
T1114 1522:062 JLINK_WriteReg(R15 (PC), 0x20000136)  returns 0x00 (0000ms, 19287ms total)
T1114 1522:062 JLINK_WriteReg(XPSR, 0x01000000)  returns 0x00 (0000ms, 19287ms total)
T1114 1522:062 JLINK_WriteReg(MSP, 0x20001000)  returns 0x00 (0000ms, 19287ms total)
T1114 1522:062 JLINK_WriteReg(PSP, 0x20001000)  returns 0x00 (0000ms, 19287ms total)
T1114 1522:062 JLINK_WriteReg(CFBP, 0x00000000)  returns 0x00 (0000ms, 19287ms total)
T1114 1522:062 JLINK_SetBPEx(Addr = 0x20000000, Type = 0xFFFFFFF2)  returns 0x00000008 (0000ms, 19287ms total)
T1114 1522:062 JLINK_Go() -- CPU_ReadMem(4 bytes @ 0xE0001000) (0005ms, 19292ms total)
T1114 1522:067 JLINK_IsHalted()  returns FALSE (0001ms, 19293ms total)
T1114 1522:070 JLINK_IsHalted()  returns FALSE (0000ms, 19292ms total)
T1114 1522:072 JLINK_IsHalted()  returns FALSE (0000ms, 19292ms total)
T1114 1522:074 JLINK_IsHalted()  returns FALSE (0000ms, 19292ms total)
T1114 1522:077 JLINK_IsHalted()  returns FALSE (0000ms, 19292ms total)
T1114 1522:079 JLINK_IsHalted() -- CPU_ReadMem(2 bytes @ 0x20000000)  returns TRUE (0005ms, 19297ms total)
T1114 1522:084 JLINK_ReadReg(R15 (PC))  returns 0x20000000 (0000ms, 19292ms total)
T1114 1522:084 JLINK_ClrBPEx(BPHandle = 0x00000008)  returns 0x00 (0000ms, 19292ms total)
T1114 1522:084 JLINK_ReadReg(R0)  returns 0x00000000 (0000ms, 19292ms total)
T1114 1522:086 JLINK_WriteMem(0x200001BC, 0x0244 Bytes, ...) - Data: A0 68 E9 68 20 F4 E0 60 08 43 A0 60 28 78 00 07 ... -- CPU_WriteMem(580 bytes @ 0x200001BC)  returns 0x244 (0007ms, 19299ms total)
T1114 1522:093 JLINK_WriteMem(0x20000400, 0x01BC Bytes, ...) - Data: D5 D1 FF F7 4B FF A9 68 CB 4A C1 F3 03 11 51 5C ... -- CPU_WriteMem(444 bytes @ 0x20000400)  returns 0x1BC (0006ms, 19305ms total)
T1114 1522:099 JLINK_WriteReg(R0, 0x08001000)  returns 0x00 (0000ms, 19305ms total)
T1114 1522:099 JLINK_WriteReg(R1, 0x00000400)  returns 0x00 (0000ms, 19305ms total)
T1114 1522:099 JLINK_WriteReg(R2, 0x200001BC)  returns 0x00 (0000ms, 19305ms total)
T1114 1522:099 JLINK_WriteReg(R3, 0x00000000)  returns 0x00 (0000ms, 19305ms total)
T1114 1522:099 JLINK_WriteReg(R4, 0x00000000)  returns 0x00 (0000ms, 19305ms total)
T1114 1522:099 JLINK_WriteReg(R5, 0x00000000)  returns 0x00 (0000ms, 19305ms total)
T1114 1522:099 JLINK_WriteReg(R6, 0x00000000)  returns 0x00 (0000ms, 19305ms total)
T1114 1522:099 JLINK_WriteReg(R7, 0x00000000)  returns 0x00 (0000ms, 19305ms total)
T1114 1522:099 JLINK_WriteReg(R8, 0x00000000)  returns 0x00 (0000ms, 19305ms total)
T1114 1522:099 JLINK_WriteReg(R9, 0x200001B8)  returns 0x00 (0000ms, 19305ms total)
T1114 1522:099 JLINK_WriteReg(R10, 0x00000000)  returns 0x00 (0000ms, 19305ms total)
T1114 1522:099 JLINK_WriteReg(R11, 0x00000000)  returns 0x00 (0000ms, 19305ms total)
T1114 1522:099 JLINK_WriteReg(R12, 0x00000000)  returns 0x00 (0000ms, 19305ms total)
T1114 1522:099 JLINK_WriteReg(R13 (SP), 0x20001000)  returns 0x00 (0000ms, 19305ms total)
T1114 1522:099 JLINK_WriteReg(R14, 0x20000001)  returns 0x00 (0000ms, 19305ms total)
T1114 1522:099 JLINK_WriteReg(R15 (PC), 0x20000136)  returns 0x00 (0000ms, 19305ms total)
T1114 1522:099 JLINK_WriteReg(XPSR, 0x01000000)  returns 0x00 (0000ms, 19305ms total)
T1114 1522:099 JLINK_WriteReg(MSP, 0x20001000)  returns 0x00 (0000ms, 19305ms total)
T1114 1522:099 JLINK_WriteReg(PSP, 0x20001000)  returns 0x00 (0000ms, 19305ms total)
T1114 1522:099 JLINK_WriteReg(CFBP, 0x00000000)  returns 0x00 (0000ms, 19305ms total)
T1114 1522:099 JLINK_SetBPEx(Addr = 0x20000000, Type = 0xFFFFFFF2)  returns 0x00000009 (0000ms, 19305ms total)
T1114 1522:099 JLINK_Go() -- CPU_ReadMem(4 bytes @ 0xE0001000) (0005ms, 19310ms total)
T1114 1522:104 JLINK_IsHalted()  returns FALSE (0001ms, 19311ms total)
T1114 1522:110 JLINK_IsHalted()  returns FALSE (0000ms, 19310ms total)
T1114 1522:112 JLINK_IsHalted()  returns FALSE (0000ms, 19310ms total)
T1114 1522:114 JLINK_IsHalted()  returns FALSE (0001ms, 19311ms total)
T1114 1522:117 JLINK_IsHalted() -- CPU_ReadMem(2 bytes @ 0x20000000)  returns TRUE (0004ms, 19314ms total)
T1114 1522:121 JLINK_ReadReg(R15 (PC))  returns 0x20000000 (0000ms, 19310ms total)
T1114 1522:121 JLINK_ClrBPEx(BPHandle = 0x00000009)  returns 0x00 (0000ms, 19310ms total)
T1114 1522:121 JLINK_ReadReg(R0)  returns 0x00000000 (0000ms, 19310ms total)
T1114 1522:122 JLINK_WriteMem(0x200001BC, 0x0244 Bytes, ...) - Data: F6 D5 12 E0 2B E1 20 F0 01 00 C5 F8 94 00 FF F7 ... -- CPU_WriteMem(580 bytes @ 0x200001BC)  returns 0x244 (0008ms, 19318ms total)
T1114 1522:130 JLINK_WriteMem(0x20000400, 0x01BC Bytes, ...) - Data: 40 EA C1 60 E9 68 24 4A 11 40 08 43 E8 60 28 68 ... -- CPU_WriteMem(444 bytes @ 0x20000400)  returns 0x1BC (0006ms, 19324ms total)
T1114 1522:136 JLINK_WriteReg(R0, 0x08001400)  returns 0x00 (0000ms, 19324ms total)
T1114 1522:136 JLINK_WriteReg(R1, 0x00000400)  returns 0x00 (0000ms, 19324ms total)
T1114 1522:136 JLINK_WriteReg(R2, 0x200001BC)  returns 0x00 (0000ms, 19324ms total)
T1114 1522:136 JLINK_WriteReg(R3, 0x00000000)  returns 0x00 (0000ms, 19324ms total)
T1114 1522:136 JLINK_WriteReg(R4, 0x00000000)  returns 0x00 (0000ms, 19324ms total)
T1114 1522:136 JLINK_WriteReg(R5, 0x00000000)  returns 0x00 (0000ms, 19324ms total)
T1114 1522:136 JLINK_WriteReg(R6, 0x00000000)  returns 0x00 (0000ms, 19324ms total)
T1114 1522:136 JLINK_WriteReg(R7, 0x00000000)  returns 0x00 (0000ms, 19324ms total)
T1114 1522:136 JLINK_WriteReg(R8, 0x00000000)  returns 0x00 (0000ms, 19324ms total)
T1114 1522:137 JLINK_WriteReg(R9, 0x200001B8)  returns 0x00 (0000ms, 19325ms total)
T1114 1522:137 JLINK_WriteReg(R10, 0x00000000)  returns 0x00 (0000ms, 19325ms total)
T1114 1522:137 JLINK_WriteReg(R11, 0x00000000)  returns 0x00 (0000ms, 19325ms total)
T1114 1522:137 JLINK_WriteReg(R12, 0x00000000)  returns 0x00 (0000ms, 19325ms total)
T1114 1522:137 JLINK_WriteReg(R13 (SP), 0x20001000)  returns 0x00 (0000ms, 19325ms total)
T1114 1522:137 JLINK_WriteReg(R14, 0x20000001)  returns 0x00 (0000ms, 19325ms total)
T1114 1522:137 JLINK_WriteReg(R15 (PC), 0x20000136)  returns 0x00 (0000ms, 19325ms total)
T1114 1522:137 JLINK_WriteReg(XPSR, 0x01000000)  returns 0x00 (0000ms, 19325ms total)
T1114 1522:137 JLINK_WriteReg(MSP, 0x20001000)  returns 0x00 (0000ms, 19325ms total)
T1114 1522:137 JLINK_WriteReg(PSP, 0x20001000)  returns 0x00 (0000ms, 19325ms total)
T1114 1522:137 JLINK_WriteReg(CFBP, 0x00000000)  returns 0x00 (0000ms, 19325ms total)
T1114 1522:137 JLINK_SetBPEx(Addr = 0x20000000, Type = 0xFFFFFFF2)  returns 0x0000000A (0000ms, 19325ms total)
T1114 1522:137 JLINK_Go() -- CPU_ReadMem(4 bytes @ 0xE0001000) (0004ms, 19329ms total)
T1114 1522:141 JLINK_IsHalted()  returns FALSE (0001ms, 19330ms total)
T1114 1522:144 JLINK_IsHalted()  returns FALSE (0001ms, 19330ms total)
T1114 1522:146 JLINK_IsHalted()  returns FALSE (0000ms, 19329ms total)
T1114 1522:149 JLINK_IsHalted()  returns FALSE (0000ms, 19329ms total)
T1114 1522:151 JLINK_IsHalted()  returns FALSE (0000ms, 19329ms total)
T1114 1522:153 JLINK_IsHalted()  returns FALSE (0000ms, 19329ms total)
T1114 1522:156 JLINK_IsHalted() -- CPU_ReadMem(2 bytes @ 0x20000000)  returns TRUE (0004ms, 19333ms total)
T1114 1522:160 JLINK_ReadReg(R15 (PC))  returns 0x20000000 (0001ms, 19330ms total)
T1114 1522:161 JLINK_ClrBPEx(BPHandle = 0x0000000A)  returns 0x00 (0000ms, 19330ms total)
T1114 1522:161 JLINK_ReadReg(R0)  returns 0x00000000 (0000ms, 19330ms total)
T1114 1522:161 JLINK_WriteMem(0x200001BC, 0x0244 Bytes, ...) - Data: 40 7F 20 46 02 D0 FF F7 CF FF 04 E0 00 F0 72 F8 ... -- CPU_WriteMem(580 bytes @ 0x200001BC)  returns 0x244 (0008ms, 19338ms total)
T1114 1522:169 JLINK_WriteMem(0x20000400, 0x01BC Bytes, ...) - Data: 0E E0 80 21 20 46 00 F0 03 FC C0 B9 D6 B1 16 F8 ... -- CPU_WriteMem(444 bytes @ 0x20000400)  returns 0x1BC (0006ms, 19344ms total)
T1114 1522:175 JLINK_WriteReg(R0, 0x08001800)  returns 0x00 (0000ms, 19344ms total)
T1114 1522:175 JLINK_WriteReg(R1, 0x00000400)  returns 0x00 (0000ms, 19344ms total)
T1114 1522:175 JLINK_WriteReg(R2, 0x200001BC)  returns 0x00 (0000ms, 19344ms total)
T1114 1522:175 JLINK_WriteReg(R3, 0x00000000)  returns 0x00 (0000ms, 19344ms total)
T1114 1522:175 JLINK_WriteReg(R4, 0x00000000)  returns 0x00 (0000ms, 19344ms total)
T1114 1522:175 JLINK_WriteReg(R5, 0x00000000)  returns 0x00 (0000ms, 19344ms total)
T1114 1522:175 JLINK_WriteReg(R6, 0x00000000)  returns 0x00 (0000ms, 19344ms total)
T1114 1522:175 JLINK_WriteReg(R7, 0x00000000)  returns 0x00 (0000ms, 19344ms total)
T1114 1522:175 JLINK_WriteReg(R8, 0x00000000)  returns 0x00 (0000ms, 19344ms total)
T1114 1522:175 JLINK_WriteReg(R9, 0x200001B8)  returns 0x00 (0000ms, 19344ms total)
T1114 1522:175 JLINK_WriteReg(R10, 0x00000000)  returns 0x00 (0000ms, 19344ms total)
T1114 1522:175 JLINK_WriteReg(R11, 0x00000000)  returns 0x00 (0000ms, 19344ms total)
T1114 1522:175 JLINK_WriteReg(R12, 0x00000000)  returns 0x00 (0000ms, 19344ms total)
T1114 1522:175 JLINK_WriteReg(R13 (SP), 0x20001000)  returns 0x00 (0000ms, 19344ms total)
T1114 1522:175 JLINK_WriteReg(R14, 0x20000001)  returns 0x00 (0000ms, 19344ms total)
T1114 1522:175 JLINK_WriteReg(R15 (PC), 0x20000136)  returns 0x00 (0000ms, 19344ms total)
T1114 1522:175 JLINK_WriteReg(XPSR, 0x01000000)  returns 0x00 (0000ms, 19344ms total)
T1114 1522:175 JLINK_WriteReg(MSP, 0x20001000)  returns 0x00 (0000ms, 19344ms total)
T1114 1522:175 JLINK_WriteReg(PSP, 0x20001000)  returns 0x00 (0000ms, 19344ms total)
T1114 1522:175 JLINK_WriteReg(CFBP, 0x00000000)  returns 0x00 (0000ms, 19344ms total)
T1114 1522:175 JLINK_SetBPEx(Addr = 0x20000000, Type = 0xFFFFFFF2)  returns 0x0000000B (0000ms, 19344ms total)
T1114 1522:175 JLINK_Go() -- CPU_ReadMem(4 bytes @ 0xE0001000) (0005ms, 19349ms total)
T1114 1522:180 JLINK_IsHalted()  returns FALSE (0001ms, 19350ms total)
T1114 1522:182 JLINK_IsHalted()  returns FALSE (0000ms, 19349ms total)
T1114 1522:184 JLINK_IsHalted()  returns FALSE (0000ms, 19349ms total)
T1114 1522:186 JLINK_IsHalted()  returns FALSE (0000ms, 19349ms total)
T1114 1522:188 JLINK_IsHalted()  returns FALSE (0000ms, 19349ms total)
T1114 1522:190 JLINK_IsHalted()  returns FALSE (0001ms, 19350ms total)
T1114 1522:193 JLINK_IsHalted() -- CPU_ReadMem(2 bytes @ 0x20000000)  returns TRUE (0004ms, 19353ms total)
T1114 1522:197 JLINK_ReadReg(R15 (PC))  returns 0x20000000 (0000ms, 19349ms total)
T1114 1522:197 JLINK_ClrBPEx(BPHandle = 0x0000000B)  returns 0x00 (0000ms, 19349ms total)
T1114 1522:197 JLINK_ReadReg(R0)  returns 0x00000000 (0000ms, 19349ms total)
T1114 1522:198 JLINK_WriteMem(0x200001BC, 0x0244 Bytes, ...) - Data: 18 D0 B8 F1 01 0F 1D D0 28 7D 4F F0 7E 41 40 08 ... -- CPU_WriteMem(580 bytes @ 0x200001BC)  returns 0x244 (0007ms, 19356ms total)
T1114 1522:206 JLINK_WriteMem(0x20000400, 0x01BC Bytes, ...) - Data: 03 D0 A0 42 01 D0 A8 42 03 D1 22 F4 40 76 CA 68 ... -- CPU_WriteMem(444 bytes @ 0x20000400)  returns 0x1BC (0005ms, 19361ms total)
T1114 1522:211 JLINK_WriteReg(R0, 0x08001C00)  returns 0x00 (0000ms, 19361ms total)
T1114 1522:211 JLINK_WriteReg(R1, 0x00000400)  returns 0x00 (0000ms, 19361ms total)
T1114 1522:211 JLINK_WriteReg(R2, 0x200001BC)  returns 0x00 (0000ms, 19361ms total)
T1114 1522:211 JLINK_WriteReg(R3, 0x00000000)  returns 0x00 (0000ms, 19361ms total)
T1114 1522:211 JLINK_WriteReg(R4, 0x00000000)  returns 0x00 (0000ms, 19361ms total)
T1114 1522:211 JLINK_WriteReg(R5, 0x00000000)  returns 0x00 (0000ms, 19361ms total)
T1114 1522:211 JLINK_WriteReg(R6, 0x00000000)  returns 0x00 (0000ms, 19361ms total)
T1114 1522:211 JLINK_WriteReg(R7, 0x00000000)  returns 0x00 (0001ms, 19362ms total)
T1114 1522:212 JLINK_WriteReg(R8, 0x00000000)  returns 0x00 (0000ms, 19362ms total)
T1114 1522:212 JLINK_WriteReg(R9, 0x200001B8)  returns 0x00 (0000ms, 19362ms total)
T1114 1522:212 JLINK_WriteReg(R10, 0x00000000)  returns 0x00 (0000ms, 19362ms total)
T1114 1522:212 JLINK_WriteReg(R11, 0x00000000)  returns 0x00 (0000ms, 19362ms total)
T1114 1522:212 JLINK_WriteReg(R12, 0x00000000)  returns 0x00 (0000ms, 19362ms total)
T1114 1522:212 JLINK_WriteReg(R13 (SP), 0x20001000)  returns 0x00 (0000ms, 19362ms total)
T1114 1522:212 JLINK_WriteReg(R14, 0x20000001)  returns 0x00 (0000ms, 19362ms total)
T1114 1522:212 JLINK_WriteReg(R15 (PC), 0x20000136)  returns 0x00 (0000ms, 19362ms total)
T1114 1522:212 JLINK_WriteReg(XPSR, 0x01000000)  returns 0x00 (0000ms, 19362ms total)
T1114 1522:212 JLINK_WriteReg(MSP, 0x20001000)  returns 0x00 (0000ms, 19362ms total)
T1114 1522:212 JLINK_WriteReg(PSP, 0x20001000)  returns 0x00 (0000ms, 19362ms total)
T1114 1522:212 JLINK_WriteReg(CFBP, 0x00000000)  returns 0x00 (0000ms, 19362ms total)
T1114 1522:212 JLINK_SetBPEx(Addr = 0x20000000, Type = 0xFFFFFFF2)  returns 0x0000000C (0000ms, 19362ms total)
T1114 1522:212 JLINK_Go() -- CPU_ReadMem(4 bytes @ 0xE0001000) (0005ms, 19367ms total)
T1114 1522:217 JLINK_IsHalted()  returns FALSE (0000ms, 19367ms total)
T1114 1522:221 JLINK_IsHalted()  returns FALSE (0000ms, 19367ms total)
T1114 1522:223 JLINK_IsHalted()  returns FALSE (0000ms, 19367ms total)
T1114 1522:226 JLINK_IsHalted()  returns FALSE (0000ms, 19367ms total)
T1114 1522:250 JLINK_IsHalted() -- CPU_ReadMem(2 bytes @ 0x20000000)  returns TRUE (0004ms, 19371ms total)
T1114 1522:254 JLINK_ReadReg(R15 (PC))  returns 0x20000000 (0000ms, 19367ms total)
T1114 1522:254 JLINK_ClrBPEx(BPHandle = 0x0000000C)  returns 0x00 (0000ms, 19367ms total)
T1114 1522:254 JLINK_ReadReg(R0)  returns 0x00000000 (0000ms, 19367ms total)
T1114 1522:255 JLINK_WriteMem(0x200001BC, 0x0244 Bytes, ...) - Data: 66 60 26 76 00 20 F4 E7 01 68 51 E8 00 2F 22 F4 ... -- CPU_WriteMem(580 bytes @ 0x200001BC)  returns 0x244 (0008ms, 19375ms total)
T1114 1522:263 JLINK_WriteMem(0x20000400, 0x01BC Bytes, ...) - Data: 00 44 00 40 00 48 00 40 00 24 F4 00 FF FC 0F 00 ... -- CPU_WriteMem(444 bytes @ 0x20000400)  returns 0x1BC (0006ms, 19381ms total)
T1114 1522:269 JLINK_WriteReg(R0, 0x08002000)  returns 0x00 (0000ms, 19381ms total)
T1114 1522:269 JLINK_WriteReg(R1, 0x00000400)  returns 0x00 (0000ms, 19381ms total)
T1114 1522:269 JLINK_WriteReg(R2, 0x200001BC)  returns 0x00 (0000ms, 19381ms total)
T1114 1522:269 JLINK_WriteReg(R3, 0x00000000)  returns 0x00 (0000ms, 19381ms total)
T1114 1522:269 JLINK_WriteReg(R4, 0x00000000)  returns 0x00 (0000ms, 19381ms total)
T1114 1522:269 JLINK_WriteReg(R5, 0x00000000)  returns 0x00 (0000ms, 19381ms total)
T1114 1522:269 JLINK_WriteReg(R6, 0x00000000)  returns 0x00 (0000ms, 19381ms total)
T1114 1522:269 JLINK_WriteReg(R7, 0x00000000)  returns 0x00 (0000ms, 19381ms total)
T1114 1522:269 JLINK_WriteReg(R8, 0x00000000)  returns 0x00 (0000ms, 19381ms total)
T1114 1522:269 JLINK_WriteReg(R9, 0x200001B8)  returns 0x00 (0000ms, 19381ms total)
T1114 1522:269 JLINK_WriteReg(R10, 0x00000000)  returns 0x00 (0000ms, 19381ms total)
T1114 1522:269 JLINK_WriteReg(R11, 0x00000000)  returns 0x00 (0000ms, 19381ms total)
T1114 1522:269 JLINK_WriteReg(R12, 0x00000000)  returns 0x00 (0000ms, 19381ms total)
T1114 1522:269 JLINK_WriteReg(R13 (SP), 0x20001000)  returns 0x00 (0000ms, 19381ms total)
T1114 1522:269 JLINK_WriteReg(R14, 0x20000001)  returns 0x00 (0000ms, 19381ms total)
T1114 1522:269 JLINK_WriteReg(R15 (PC), 0x20000136)  returns 0x00 (0000ms, 19381ms total)
T1114 1522:269 JLINK_WriteReg(XPSR, 0x01000000)  returns 0x00 (0000ms, 19381ms total)
T1114 1522:269 JLINK_WriteReg(MSP, 0x20001000)  returns 0x00 (0000ms, 19381ms total)
T1114 1522:269 JLINK_WriteReg(PSP, 0x20001000)  returns 0x00 (0000ms, 19381ms total)
T1114 1522:269 JLINK_WriteReg(CFBP, 0x00000000)  returns 0x00 (0000ms, 19381ms total)
T1114 1522:269 JLINK_SetBPEx(Addr = 0x20000000, Type = 0xFFFFFFF2)  returns 0x0000000D (0000ms, 19381ms total)
T1114 1522:269 JLINK_Go() -- CPU_ReadMem(4 bytes @ 0xE0001000) (0005ms, 19386ms total)
T1114 1522:274 JLINK_IsHalted()  returns FALSE (0001ms, 19387ms total)
T1114 1522:277 JLINK_IsHalted()  returns FALSE (0000ms, 19386ms total)
T1114 1522:279 JLINK_IsHalted()  returns FALSE (0000ms, 19386ms total)
T1114 1522:282 JLINK_IsHalted()  returns FALSE (0001ms, 19387ms total)
T1114 1522:285 JLINK_IsHalted()  returns FALSE (0000ms, 19386ms total)
T1114 1522:287 JLINK_IsHalted() -- CPU_ReadMem(2 bytes @ 0x20000000)  returns TRUE (0004ms, 19390ms total)
T1114 1522:291 JLINK_ReadReg(R15 (PC))  returns 0x20000000 (0000ms, 19386ms total)
T1114 1522:291 JLINK_ClrBPEx(BPHandle = 0x0000000D)  returns 0x00 (0000ms, 19386ms total)
T1114 1522:291 JLINK_ReadReg(R0)  returns 0x00000000 (0000ms, 19386ms total)
T1114 1522:292 JLINK_WriteMem(0x200001BC, 0x0244 Bytes, ...) - Data: 00 0F 06 DA FE F7 8A F8 42 46 4B 46 FE F7 86 F8 ... -- CPU_WriteMem(580 bytes @ 0x200001BC)  returns 0x244 (0008ms, 19394ms total)
T1114 1522:300 JLINK_WriteMem(0x20000400, 0x01BC Bytes, ...) - Data: 00 10 0D 80 F2 E7 0D 70 F0 E7 19 F8 04 1B 8D F8 ... -- CPU_WriteMem(444 bytes @ 0x20000400)  returns 0x1BC (0006ms, 19400ms total)
T1114 1522:306 JLINK_WriteReg(R0, 0x08002400)  returns 0x00 (0000ms, 19400ms total)
T1114 1522:306 JLINK_WriteReg(R1, 0x00000400)  returns 0x00 (0000ms, 19400ms total)
T1114 1522:306 JLINK_WriteReg(R2, 0x200001BC)  returns 0x00 (0000ms, 19400ms total)
T1114 1522:306 JLINK_WriteReg(R3, 0x00000000)  returns 0x00 (0000ms, 19400ms total)
T1114 1522:306 JLINK_WriteReg(R4, 0x00000000)  returns 0x00 (0000ms, 19400ms total)
T1114 1522:306 JLINK_WriteReg(R5, 0x00000000)  returns 0x00 (0000ms, 19400ms total)
T1114 1522:306 JLINK_WriteReg(R6, 0x00000000)  returns 0x00 (0000ms, 19400ms total)
T1114 1522:306 JLINK_WriteReg(R7, 0x00000000)  returns 0x00 (0000ms, 19400ms total)
T1114 1522:306 JLINK_WriteReg(R8, 0x00000000)  returns 0x00 (0000ms, 19400ms total)
T1114 1522:306 JLINK_WriteReg(R9, 0x200001B8)  returns 0x00 (0000ms, 19400ms total)
T1114 1522:306 JLINK_WriteReg(R10, 0x00000000)  returns 0x00 (0000ms, 19400ms total)
T1114 1522:306 JLINK_WriteReg(R11, 0x00000000)  returns 0x00 (0000ms, 19400ms total)
T1114 1522:306 JLINK_WriteReg(R12, 0x00000000)  returns 0x00 (0000ms, 19400ms total)
T1114 1522:306 JLINK_WriteReg(R13 (SP), 0x20001000)  returns 0x00 (0000ms, 19400ms total)
T1114 1522:306 JLINK_WriteReg(R14, 0x20000001)  returns 0x00 (0000ms, 19400ms total)
T1114 1522:306 JLINK_WriteReg(R15 (PC), 0x20000136)  returns 0x00 (0000ms, 19400ms total)
T1114 1522:306 JLINK_WriteReg(XPSR, 0x01000000)  returns 0x00 (0000ms, 19400ms total)
T1114 1522:306 JLINK_WriteReg(MSP, 0x20001000)  returns 0x00 (0000ms, 19400ms total)
T1114 1522:306 JLINK_WriteReg(PSP, 0x20001000)  returns 0x00 (0000ms, 19400ms total)
T1114 1522:306 JLINK_WriteReg(CFBP, 0x00000000)  returns 0x00 (0000ms, 19400ms total)
T1114 1522:306 JLINK_SetBPEx(Addr = 0x20000000, Type = 0xFFFFFFF2)  returns 0x0000000E (0000ms, 19400ms total)
T1114 1522:306 JLINK_Go() -- CPU_ReadMem(4 bytes @ 0xE0001000) (0005ms, 19405ms total)
T1114 1522:311 JLINK_IsHalted()  returns FALSE (0001ms, 19406ms total)
T1114 1522:314 JLINK_IsHalted()  returns FALSE (0000ms, 19405ms total)
T1114 1522:318 JLINK_IsHalted()  returns FALSE (0000ms, 19405ms total)
T1114 1522:320 JLINK_IsHalted()  returns FALSE (0000ms, 19405ms total)
T1114 1522:322 JLINK_IsHalted()  returns FALSE (0000ms, 19405ms total)
T1114 1522:324 JLINK_IsHalted() -- CPU_ReadMem(2 bytes @ 0x20000000)  returns TRUE (0004ms, 19409ms total)
T1114 1522:328 JLINK_ReadReg(R15 (PC))  returns 0x20000000 (0000ms, 19405ms total)
T1114 1522:329 JLINK_ClrBPEx(BPHandle = 0x0000000E)  returns 0x00 (0000ms, 19405ms total)
T1114 1522:329 JLINK_ReadReg(R0)  returns 0x00000000 (0000ms, 19405ms total)
T1114 1522:330 JLINK_WriteMem(0x200001BC, 0x0244 Bytes, ...) - Data: 7F 1E 58 28 04 D0 34 A0 03 90 0E A8 02 90 0D E0 ... -- CPU_WriteMem(580 bytes @ 0x200001BC)  returns 0x244 (0008ms, 19413ms total)
